Command: /home/runner/./simv +vcs+lic+wait ./simv -l APB_SLAVE_Reports.log
Chronologic VCS simulator copyright 1991-2023
Contains Synopsys proprietary information.
Compiler version U-2023.03-SP2_Full64; Runtime version U-2023.03-SP2_Full64;  Feb  4 01:19 2025
UVM_INFO /apps/vcsmx/vcs/U-2023.03-SP2//etc/uvm-1.2/src/base/uvm_root.svh(402) @ 0: reporter [UVM/RELNOTES] 
----------------------------------------------------------------
UVM-1.2.Synopsys
(C) 2007-2014 Mentor Graphics Corporation
(C) 2007-2014 Cadence Design Systems, Inc.
(C) 2006-2014 Synopsys, Inc.
(C) 2011-2013 Cypress Semiconductor Corp.
(C) 2013-2014 NVIDIA Corporation
----------------------------------------------------------------

  ***********       IMPORTANT RELEASE NOTES         ************

  You are using a version of the UVM library that has been compiled
  with `UVM_NO_DEPRECATED undefined.
  See http://www.eda.org/svdb/view.php?id=3313 for more details.

  You are using a version of the UVM library that has been compiled
  with `UVM_OBJECT_DO_NOT_NEED_CONSTRUCTOR undefined.
  See http://www.eda.org/svdb/view.php?id=3770 for more details.

      (Specify +UVM_NO_RELNOTES to turn off this notice)

UVM_INFO @ 0: reporter [RNTST] Running test test_case_4...
UVM_INFO apb_test.sv(19) @ 0: uvm_test_top [Base Test] Build_Phase
UVM_INFO apb_environment.sv(22) @ 0: uvm_test_top.env_h [Environment] Build_Phase
UVM_INFO apb_agent.sv(22) @ 0: uvm_test_top.env_h.agnt_h [Agent] Build_Phase
UVM_INFO apb_driver.sv(24) @ 0: uvm_test_top.env_h.agnt_h.driv_h [Driver] Build_Phase
UVM_INFO apb_driver.sv(26) @ 0: uvm_test_top.env_h.agnt_h.driv_h [Driver] Virtual Interface Established
UVM_INFO apb_monitor.sv(27) @ 0: uvm_test_top.env_h.agnt_h.mon_h [Monitor] Build_Phase
UVM_INFO apb_monitor.sv(29) @ 0: uvm_test_top.env_h.agnt_h.mon_h [Monitor] Virtual Interface Established
UVM_INFO apb_sequencer.sv(20) @ 0: uvm_test_top.env_h.agnt_h.sequ_h [Sequencer] Build_Phase
UVM_INFO apb_scoreboard.sv(26) @ 0: uvm_test_top.env_h.scb_h [Scoreboard] Build_Phase
UVM_INFO apb_agent.sv(30) @ 0: uvm_test_top.env_h.agnt_h [Agent] Connect_Phase
UVM_INFO apb_environment.sv(31) @ 0: uvm_test_top.env_h [Environment] Connect_Phase
UVM_INFO /apps/vcsmx/vcs/U-2023.03-SP2//etc/uvm-1.2/src/base/uvm_root.svh(589) @ 0: reporter [UVMTOP] UVM testbench topology:
------------------------------------------------------------------
Name                       Type                        Size  Value
------------------------------------------------------------------
uvm_test_top               test_case_4                 -     @341 
  env_h                    apb_env                     -     @356 
    agnt_h                 apb_agent                   -     @367 
      driv_h               apb_driver                  -     @407 
        rsp_port           uvm_analysis_port           -     @426 
        seq_item_port      uvm_seq_item_pull_port      -     @416 
      mon_h                apb_monitor                 -     @573 
        mon2scb            uvm_analysis_port           -     @592 
      sequ_h               apb_sequencer               -     @436 
        rsp_export         uvm_analysis_export         -     @445 
        seq_item_export    uvm_seq_item_pull_imp       -     @563 
        arbitration_queue  array                       0     -    
        lock_queue         array                       0     -    
        num_last_reqs      integral                    32    'd1  
        num_last_rsps      integral                    32    'd1  
    cov_h                  coverage                    -     @385 
      analysis_imp         uvm_analysis_imp            -     @394 
      mon2cov              uvm_tlm_analysis_fifo #(T)  -     @609 
        analysis_export    uvm_analysis_imp            -     @658 
        get_ap             uvm_analysis_port           -     @648 
        get_peek_export    uvm_get_peek_imp            -     @628 
        put_ap             uvm_analysis_port           -     @638 
        put_export         uvm_put_imp                 -     @618 
    scb_h                  apb_scoreboard              -     @376 
      mon2scb              uvm_tlm_analysis_fifo #(T)  -     @670 
        analysis_export    uvm_analysis_imp            -     @719 
        get_ap             uvm_analysis_port           -     @709 
        get_peek_export    uvm_get_peek_imp            -     @689 
        put_ap             uvm_analysis_port           -     @699 
        put_export         uvm_put_imp                 -     @679 
------------------------------------------------------------------

UVM_INFO apb_driver.sv(36) @ 0: uvm_test_top.env_h.agnt_h.driv_h [Driver] Run Phase
UVM_INFO apb_driver.sv(39) @ 0: uvm_test_top.env_h.agnt_h.driv_h [DRIVER RESET] Driver in Reset Phase
UVM_INFO apb_monitor.sv(40) @ 0: uvm_test_top.env_h.agnt_h.mon_h [Monitor] Run_Phase
UVM_INFO apb_scoreboard.sv(33) @ 0: uvm_test_top.env_h.scb_h [Scoreboard] Run_Phase
UVM_INFO apb_test.sv(152) @ 0: uvm_test_top [Test Case 4 Started] 
---------------------------------------------------------------------------------------------
Name                           Type             Size  Value                                  
---------------------------------------------------------------------------------------------
txn_h                          apb_transaction  -     @769                                   
  name                         string           9     sequence3                              
  psel                         integral         1     'h0                                    
  penable                      integral         1     'h0                                    
  paddr                        integral         32    'h1                                    
  pwdata                       integral         32    'h7a                                   
  pwrite                       integral         1     'h1                                    
  prdata                       integral         32    'h0                                    
  pslverr                      integral         1     'h0                                    
  pready                       integral         1     'h0                                    
  begin_time                   time             64    2                                      
  depth                        int              32    'd2                                    
  parent sequence (name)       string           6     seq_4h                                 
  parent sequence (full name)  string           39    uvm_test_top.env_h.agnt_h.sequ_h.seq_4h
  sequencer                    string           32    uvm_test_top.env_h.agnt_h.sequ_h       
---------------------------------------------------------------------------------------------
-----------------------------------------
Name       Type             Size  Value  
-----------------------------------------
txn_h      apb_transaction  -     @806   
  name     string           7     MONITOR
  psel     integral         1     'h0    
  penable  integral         1     'h0    
  paddr    integral         32    'h1    
  pwdata   integral         32    'h7a   
  pwrite   integral         1     'h1    
  prdata   integral         32    'h0    
  pslverr  integral         1     'h0    
  pready   integral         1     'h0    
-----------------------------------------
---------------------------------------------------------------------------------------------
Name                           Type             Size  Value                                  
---------------------------------------------------------------------------------------------
txn_h                          apb_transaction  -     @769                                   
  name                         string           6     DRIVER                                 
  psel                         integral         1     'h0                                    
  penable                      integral         1     'h0                                    
  paddr                        integral         32    'h1                                    
  pwdata                       integral         32    'h7a                                   
  pwrite                       integral         1     'h1                                    
  prdata                       integral         32    'h0                                    
  pslverr                      integral         1     'h0                                    
  pready                       integral         1     'h0                                    
  begin_time                   time             64    2                                      
  depth                        int              32    'd2                                    
  parent sequence (name)       string           6     seq_4h                                 
  parent sequence (full name)  string           39    uvm_test_top.env_h.agnt_h.sequ_h.seq_4h
  sequencer                    string           32    uvm_test_top.env_h.agnt_h.sequ_h       
---------------------------------------------------------------------------------------------
UVM_INFO apb_subscriber.sv(55) @ 7: uvm_test_top.env_h.cov_h [COVERAGE CALCULATED] --------------------------------------------
Name       Type             Size  Value     
--------------------------------------------
txn_h      apb_transaction  -     @806      
  name     string           10    SUBSCRIBER
  psel     integral         1     'h0       
  penable  integral         1     'h0       
  paddr    integral         32    'h1       
  pwdata   integral         32    'h7a      
  pwrite   integral         1     'h1       
  prdata   integral         32    'h0       
  pslverr  integral         1     'h0       
  pready   integral         1     'h0       
--------------------------------------------

UVM_INFO apb_subscriber.sv(56) @ 7: uvm_test_top.env_h.cov_h [COVERAGE CALCULATED IS = ] 85
--------------------------------------------
Name       Type             Size  Value     
--------------------------------------------
txn_h      apb_transaction  -     @806      
  name     string           10    SCOREBOARD
  psel     integral         1     'h0       
  penable  integral         1     'h0       
  paddr    integral         32    'h1       
  pwdata   integral         32    'h7a      
  pwrite   integral         1     'h1       
  prdata   integral         32    'h0       
  pslverr  integral         1     'h0       
  pready   integral         1     'h0       
--------------------------------------------
---------------------------------------------------------------------------------------------
Name                           Type             Size  Value                                  
---------------------------------------------------------------------------------------------
txn_h                          apb_transaction  -     @769                                   
  name                         string           9     sequence3                              
  psel                         integral         1     'h0                                    
  penable                      integral         1     'h0                                    
  paddr                        integral         32    'hb                                    
  pwdata                       integral         32    'ha3                                   
  pwrite                       integral         1     'h1                                    
  prdata                       integral         32    'h0                                    
  pslverr                      integral         1     'h0                                    
  pready                       integral         1     'h0                                    
  begin_time                   time             64    7                                      
  depth                        int              32    'd2                                    
  parent sequence (name)       string           6     seq_4h                                 
  parent sequence (full name)  string           39    uvm_test_top.env_h.agnt_h.sequ_h.seq_4h
  sequencer                    string           32    uvm_test_top.env_h.agnt_h.sequ_h       
---------------------------------------------------------------------------------------------
UVM_INFO apb_property.sv(58) @ 7: reporter [ASSERTION PASSED for Handshake penable pready] 
UVM_INFO apb_property.sv(34) @ 7: reporter [ASSERTION PASSED setup_access] 
UVM_INFO apb_property.sv(46) @ 9: reporter [ASSERTION PASSED access_idle] 
-----------------------------------------
Name       Type             Size  Value  
-----------------------------------------
txn_h      apb_transaction  -     @829   
  name     string           7     MONITOR
  psel     integral         1     'h0    
  penable  integral         1     'h0    
  paddr    integral         32    'hb    
  pwdata   integral         32    'ha3   
  pwrite   integral         1     'h1    
  prdata   integral         32    'h0    
  pslverr  integral         1     'h0    
  pready   integral         1     'h0    
-----------------------------------------
---------------------------------------------------------------------------------------------
Name                           Type             Size  Value                                  
---------------------------------------------------------------------------------------------
txn_h                          apb_transaction  -     @769                                   
  name                         string           6     DRIVER                                 
  psel                         integral         1     'h0                                    
  penable                      integral         1     'h0                                    
  paddr                        integral         32    'hb                                    
  pwdata                       integral         32    'ha3                                   
  pwrite                       integral         1     'h1                                    
  prdata                       integral         32    'h0                                    
  pslverr                      integral         1     'h0                                    
  pready                       integral         1     'h0                                    
  begin_time                   time             64    7                                      
  depth                        int              32    'd2                                    
  parent sequence (name)       string           6     seq_4h                                 
  parent sequence (full name)  string           39    uvm_test_top.env_h.agnt_h.sequ_h.seq_4h
  sequencer                    string           32    uvm_test_top.env_h.agnt_h.sequ_h       
---------------------------------------------------------------------------------------------
UVM_INFO apb_subscriber.sv(55) @ 13: uvm_test_top.env_h.cov_h [COVERAGE CALCULATED] --------------------------------------------
Name       Type             Size  Value     
--------------------------------------------
txn_h      apb_transaction  -     @829      
  name     string           10    SUBSCRIBER
  psel     integral         1     'h0       
  penable  integral         1     'h0       
  paddr    integral         32    'hb       
  pwdata   integral         32    'ha3      
  pwrite   integral         1     'h1       
  prdata   integral         32    'h0       
  pslverr  integral         1     'h0       
  pready   integral         1     'h0       
--------------------------------------------

UVM_INFO apb_subscriber.sv(56) @ 13: uvm_test_top.env_h.cov_h [COVERAGE CALCULATED IS = ] 92
--------------------------------------------
Name       Type             Size  Value     
--------------------------------------------
txn_h      apb_transaction  -     @829      
  name     string           10    SCOREBOARD
  psel     integral         1     'h0       
  penable  integral         1     'h0       
  paddr    integral         32    'hb       
  pwdata   integral         32    'ha3      
  pwrite   integral         1     'h1       
  prdata   integral         32    'h0       
  pslverr  integral         1     'h0       
  pready   integral         1     'h0       
--------------------------------------------
---------------------------------------------------------------------------------------------
Name                           Type             Size  Value                                  
---------------------------------------------------------------------------------------------
txn_h                          apb_transaction  -     @769                                   
  name                         string           9     sequence3                              
  psel                         integral         1     'h0                                    
  penable                      integral         1     'h0                                    
  paddr                        integral         32    'h3                                    
  pwdata                       integral         32    'h4e                                   
  pwrite                       integral         1     'h1                                    
  prdata                       integral         32    'h0                                    
  pslverr                      integral         1     'h0                                    
  pready                       integral         1     'h0                                    
  begin_time                   time             64    13                                     
  depth                        int              32    'd2                                    
  parent sequence (name)       string           6     seq_4h                                 
  parent sequence (full name)  string           39    uvm_test_top.env_h.agnt_h.sequ_h.seq_4h
  sequencer                    string           32    uvm_test_top.env_h.agnt_h.sequ_h       
---------------------------------------------------------------------------------------------
UVM_INFO apb_property.sv(58) @ 13: reporter [ASSERTION PASSED for Handshake penable pready] 
UVM_INFO apb_property.sv(34) @ 13: reporter [ASSERTION PASSED setup_access] 
UVM_INFO apb_property.sv(46) @ 15: reporter [ASSERTION PASSED access_idle] 
-----------------------------------------
Name       Type             Size  Value  
-----------------------------------------
txn_h      apb_transaction  -     @851   
  name     string           7     MONITOR
  psel     integral         1     'h0    
  penable  integral         1     'h0    
  paddr    integral         32    'h3    
  pwdata   integral         32    'h4e   
  pwrite   integral         1     'h1    
  prdata   integral         32    'h0    
  pslverr  integral         1     'h0    
  pready   integral         1     'h0    
-----------------------------------------
---------------------------------------------------------------------------------------------
Name                           Type             Size  Value                                  
---------------------------------------------------------------------------------------------
txn_h                          apb_transaction  -     @769                                   
  name                         string           6     DRIVER                                 
  psel                         integral         1     'h0                                    
  penable                      integral         1     'h0                                    
  paddr                        integral         32    'h3                                    
  pwdata                       integral         32    'h4e                                   
  pwrite                       integral         1     'h1                                    
  prdata                       integral         32    'h0                                    
  pslverr                      integral         1     'h0                                    
  pready                       integral         1     'h0                                    
  begin_time                   time             64    13                                     
  depth                        int              32    'd2                                    
  parent sequence (name)       string           6     seq_4h                                 
  parent sequence (full name)  string           39    uvm_test_top.env_h.agnt_h.sequ_h.seq_4h
  sequencer                    string           32    uvm_test_top.env_h.agnt_h.sequ_h       
---------------------------------------------------------------------------------------------
UVM_INFO apb_subscriber.sv(55) @ 19: uvm_test_top.env_h.cov_h [COVERAGE CALCULATED] --------------------------------------------
Name       Type             Size  Value     
--------------------------------------------
txn_h      apb_transaction  -     @851      
  name     string           10    SUBSCRIBER
  psel     integral         1     'h0       
  penable  integral         1     'h0       
  paddr    integral         32    'h3       
  pwdata   integral         32    'h4e      
  pwrite   integral         1     'h1       
  prdata   integral         32    'h0       
  pslverr  integral         1     'h0       
  pready   integral         1     'h0       
--------------------------------------------

UVM_INFO apb_subscriber.sv(56) @ 19: uvm_test_top.env_h.cov_h [COVERAGE CALCULATED IS = ] 92
--------------------------------------------
Name       Type             Size  Value     
--------------------------------------------
txn_h      apb_transaction  -     @851      
  name     string           10    SCOREBOARD
  psel     integral         1     'h0       
  penable  integral         1     'h0       
  paddr    integral         32    'h3       
  pwdata   integral         32    'h4e      
  pwrite   integral         1     'h1       
  prdata   integral         32    'h0       
  pslverr  integral         1     'h0       
  pready   integral         1     'h0       
--------------------------------------------
---------------------------------------------------------------------------------------------
Name                           Type             Size  Value                                  
---------------------------------------------------------------------------------------------
txn_h                          apb_transaction  -     @769                                   
  name                         string           9     sequence3                              
  psel                         integral         1     'h0                                    
  penable                      integral         1     'h0                                    
  paddr                        integral         32    'h8                                    
  pwdata                       integral         32    'h4c                                   
  pwrite                       integral         1     'h1                                    
  prdata                       integral         32    'h0                                    
  pslverr                      integral         1     'h0                                    
  pready                       integral         1     'h0                                    
  begin_time                   time             64    19                                     
  depth                        int              32    'd2                                    
  parent sequence (name)       string           6     seq_4h                                 
  parent sequence (full name)  string           39    uvm_test_top.env_h.agnt_h.sequ_h.seq_4h
  sequencer                    string           32    uvm_test_top.env_h.agnt_h.sequ_h       
---------------------------------------------------------------------------------------------
UVM_INFO apb_property.sv(58) @ 19: reporter [ASSERTION PASSED for Handshake penable pready] 
UVM_INFO apb_property.sv(34) @ 19: reporter [ASSERTION PASSED setup_access] 
UVM_INFO apb_property.sv(46) @ 21: reporter [ASSERTION PASSED access_idle] 
-----------------------------------------
Name       Type             Size  Value  
-----------------------------------------
txn_h      apb_transaction  -     @873   
  name     string           7     MONITOR
  psel     integral         1     'h0    
  penable  integral         1     'h0    
  paddr    integral         32    'h8    
  pwdata   integral         32    'h4c   
  pwrite   integral         1     'h1    
  prdata   integral         32    'h0    
  pslverr  integral         1     'h0    
  pready   integral         1     'h0    
-----------------------------------------
---------------------------------------------------------------------------------------------
Name                           Type             Size  Value                                  
---------------------------------------------------------------------------------------------
txn_h                          apb_transaction  -     @769                                   
  name                         string           6     DRIVER                                 
  psel                         integral         1     'h0                                    
  penable                      integral         1     'h0                                    
  paddr                        integral         32    'h8                                    
  pwdata                       integral         32    'h4c                                   
  pwrite                       integral         1     'h1                                    
  prdata                       integral         32    'h0                                    
  pslverr                      integral         1     'h0                                    
  pready                       integral         1     'h0                                    
  begin_time                   time             64    19                                     
  depth                        int              32    'd2                                    
  parent sequence (name)       string           6     seq_4h                                 
  parent sequence (full name)  string           39    uvm_test_top.env_h.agnt_h.sequ_h.seq_4h
  sequencer                    string           32    uvm_test_top.env_h.agnt_h.sequ_h       
---------------------------------------------------------------------------------------------
UVM_INFO apb_subscriber.sv(55) @ 25: uvm_test_top.env_h.cov_h [COVERAGE CALCULATED] --------------------------------------------
Name       Type             Size  Value     
--------------------------------------------
txn_h      apb_transaction  -     @873      
  name     string           10    SUBSCRIBER
  psel     integral         1     'h0       
  penable  integral         1     'h0       
  paddr    integral         32    'h8       
  pwdata   integral         32    'h4c      
  pwrite   integral         1     'h1       
  prdata   integral         32    'h0       
  pslverr  integral         1     'h0       
  pready   integral         1     'h0       
--------------------------------------------

UVM_INFO apb_subscriber.sv(56) @ 25: uvm_test_top.env_h.cov_h [COVERAGE CALCULATED IS = ] 92
--------------------------------------------
Name       Type             Size  Value     
--------------------------------------------
txn_h      apb_transaction  -     @873      
  name     string           10    SCOREBOARD
  psel     integral         1     'h0       
  penable  integral         1     'h0       
  paddr    integral         32    'h8       
  pwdata   integral         32    'h4c      
  pwrite   integral         1     'h1       
  prdata   integral         32    'h0       
  pslverr  integral         1     'h0       
  pready   integral         1     'h0       
--------------------------------------------
---------------------------------------------------------------------------------------------
Name                           Type             Size  Value                                  
---------------------------------------------------------------------------------------------
txn_h                          apb_transaction  -     @769                                   
  name                         string           9     sequence3                              
  psel                         integral         1     'h0                                    
  penable                      integral         1     'h0                                    
  paddr                        integral         32    'h7                                    
  pwdata                       integral         32    'hac                                   
  pwrite                       integral         1     'h1                                    
  prdata                       integral         32    'h0                                    
  pslverr                      integral         1     'h0                                    
  pready                       integral         1     'h0                                    
  begin_time                   time             64    25                                     
  depth                        int              32    'd2                                    
  parent sequence (name)       string           6     seq_4h                                 
  parent sequence (full name)  string           39    uvm_test_top.env_h.agnt_h.sequ_h.seq_4h
  sequencer                    string           32    uvm_test_top.env_h.agnt_h.sequ_h       
---------------------------------------------------------------------------------------------
UVM_INFO apb_property.sv(58) @ 25: reporter [ASSERTION PASSED for Handshake penable pready] 
UVM_INFO apb_property.sv(34) @ 25: reporter [ASSERTION PASSED setup_access] 
UVM_INFO apb_property.sv(46) @ 27: reporter [ASSERTION PASSED access_idle] 
-----------------------------------------
Name       Type             Size  Value  
-----------------------------------------
txn_h      apb_transaction  -     @895   
  name     string           7     MONITOR
  psel     integral         1     'h0    
  penable  integral         1     'h0    
  paddr    integral         32    'h7    
  pwdata   integral         32    'hac   
  pwrite   integral         1     'h1    
  prdata   integral         32    'h0    
  pslverr  integral         1     'h0    
  pready   integral         1     'h0    
-----------------------------------------
---------------------------------------------------------------------------------------------
Name                           Type             Size  Value                                  
---------------------------------------------------------------------------------------------
txn_h                          apb_transaction  -     @769                                   
  name                         string           6     DRIVER                                 
  psel                         integral         1     'h0                                    
  penable                      integral         1     'h0                                    
  paddr                        integral         32    'h7                                    
  pwdata                       integral         32    'hac                                   
  pwrite                       integral         1     'h1                                    
  prdata                       integral         32    'h0                                    
  pslverr                      integral         1     'h0                                    
  pready                       integral         1     'h0                                    
  begin_time                   time             64    25                                     
  depth                        int              32    'd2                                    
  parent sequence (name)       string           6     seq_4h                                 
  parent sequence (full name)  string           39    uvm_test_top.env_h.agnt_h.sequ_h.seq_4h
  sequencer                    string           32    uvm_test_top.env_h.agnt_h.sequ_h       
---------------------------------------------------------------------------------------------
UVM_INFO apb_subscriber.sv(55) @ 31: uvm_test_top.env_h.cov_h [COVERAGE CALCULATED] --------------------------------------------
Name       Type             Size  Value     
--------------------------------------------
txn_h      apb_transaction  -     @895      
  name     string           10    SUBSCRIBER
  psel     integral         1     'h0       
  penable  integral         1     'h0       
  paddr    integral         32    'h7       
  pwdata   integral         32    'hac      
  pwrite   integral         1     'h1       
  prdata   integral         32    'h0       
  pslverr  integral         1     'h0       
  pready   integral         1     'h0       
--------------------------------------------

UVM_INFO apb_subscriber.sv(56) @ 31: uvm_test_top.env_h.cov_h [COVERAGE CALCULATED IS = ] 92
--------------------------------------------
Name       Type             Size  Value     
--------------------------------------------
txn_h      apb_transaction  -     @895      
  name     string           10    SCOREBOARD
  psel     integral         1     'h0       
  penable  integral         1     'h0       
  paddr    integral         32    'h7       
  pwdata   integral         32    'hac      
  pwrite   integral         1     'h1       
  prdata   integral         32    'h0       
  pslverr  integral         1     'h0       
  pready   integral         1     'h0       
--------------------------------------------
---------------------------------------------------------------------------------------------
Name                           Type             Size  Value                                  
---------------------------------------------------------------------------------------------
txn_h                          apb_transaction  -     @769                                   
  name                         string           9     sequence3                              
  psel                         integral         1     'h0                                    
  penable                      integral         1     'h0                                    
  paddr                        integral         32    'h6                                    
  pwdata                       integral         32    'he1                                   
  pwrite                       integral         1     'h1                                    
  prdata                       integral         32    'h0                                    
  pslverr                      integral         1     'h0                                    
  pready                       integral         1     'h0                                    
  begin_time                   time             64    31                                     
  depth                        int              32    'd2                                    
  parent sequence (name)       string           6     seq_4h                                 
  parent sequence (full name)  string           39    uvm_test_top.env_h.agnt_h.sequ_h.seq_4h
  sequencer                    string           32    uvm_test_top.env_h.agnt_h.sequ_h       
---------------------------------------------------------------------------------------------
UVM_INFO apb_property.sv(58) @ 31: reporter [ASSERTION PASSED for Handshake penable pready] 
UVM_INFO apb_property.sv(34) @ 31: reporter [ASSERTION PASSED setup_access] 
UVM_INFO apb_property.sv(46) @ 33: reporter [ASSERTION PASSED access_idle] 
-----------------------------------------
Name       Type             Size  Value  
-----------------------------------------
txn_h      apb_transaction  -     @917   
  name     string           7     MONITOR
  psel     integral         1     'h0    
  penable  integral         1     'h0    
  paddr    integral         32    'h6    
  pwdata   integral         32    'he1   
  pwrite   integral         1     'h1    
  prdata   integral         32    'h0    
  pslverr  integral         1     'h0    
  pready   integral         1     'h0    
-----------------------------------------
---------------------------------------------------------------------------------------------
Name                           Type             Size  Value                                  
---------------------------------------------------------------------------------------------
txn_h                          apb_transaction  -     @769                                   
  name                         string           6     DRIVER                                 
  psel                         integral         1     'h0                                    
  penable                      integral         1     'h0                                    
  paddr                        integral         32    'h6                                    
  pwdata                       integral         32    'he1                                   
  pwrite                       integral         1     'h1                                    
  prdata                       integral         32    'h0                                    
  pslverr                      integral         1     'h0                                    
  pready                       integral         1     'h0                                    
  begin_time                   time             64    31                                     
  depth                        int              32    'd2                                    
  parent sequence (name)       string           6     seq_4h                                 
  parent sequence (full name)  string           39    uvm_test_top.env_h.agnt_h.sequ_h.seq_4h
  sequencer                    string           32    uvm_test_top.env_h.agnt_h.sequ_h       
---------------------------------------------------------------------------------------------
UVM_INFO apb_subscriber.sv(55) @ 37: uvm_test_top.env_h.cov_h [COVERAGE CALCULATED] --------------------------------------------
Name       Type             Size  Value     
--------------------------------------------
txn_h      apb_transaction  -     @917      
  name     string           10    SUBSCRIBER
  psel     integral         1     'h0       
  penable  integral         1     'h0       
  paddr    integral         32    'h6       
  pwdata   integral         32    'he1      
  pwrite   integral         1     'h1       
  prdata   integral         32    'h0       
  pslverr  integral         1     'h0       
  pready   integral         1     'h0       
--------------------------------------------

UVM_INFO apb_subscriber.sv(56) @ 37: uvm_test_top.env_h.cov_h [COVERAGE CALCULATED IS = ] 92
--------------------------------------------
Name       Type             Size  Value     
--------------------------------------------
txn_h      apb_transaction  -     @917      
  name     string           10    SCOREBOARD
  psel     integral         1     'h0       
  penable  integral         1     'h0       
  paddr    integral         32    'h6       
  pwdata   integral         32    'he1      
  pwrite   integral         1     'h1       
  prdata   integral         32    'h0       
  pslverr  integral         1     'h0       
  pready   integral         1     'h0       
--------------------------------------------
---------------------------------------------------------------------------------------------
Name                           Type             Size  Value                                  
---------------------------------------------------------------------------------------------
txn_h                          apb_transaction  -     @769                                   
  name                         string           9     sequence3                              
  psel                         integral         1     'h0                                    
  penable                      integral         1     'h0                                    
  paddr                        integral         32    'hc                                    
  pwdata                       integral         32    'h47                                   
  pwrite                       integral         1     'h1                                    
  prdata                       integral         32    'h0                                    
  pslverr                      integral         1     'h0                                    
  pready                       integral         1     'h0                                    
  begin_time                   time             64    37                                     
  depth                        int              32    'd2                                    
  parent sequence (name)       string           6     seq_4h                                 
  parent sequence (full name)  string           39    uvm_test_top.env_h.agnt_h.sequ_h.seq_4h
  sequencer                    string           32    uvm_test_top.env_h.agnt_h.sequ_h       
---------------------------------------------------------------------------------------------
UVM_INFO apb_property.sv(58) @ 37: reporter [ASSERTION PASSED for Handshake penable pready] 
UVM_INFO apb_property.sv(34) @ 37: reporter [ASSERTION PASSED setup_access] 
UVM_INFO apb_property.sv(46) @ 39: reporter [ASSERTION PASSED access_idle] 
-----------------------------------------
Name       Type             Size  Value  
-----------------------------------------
txn_h      apb_transaction  -     @939   
  name     string           7     MONITOR
  psel     integral         1     'h0    
  penable  integral         1     'h0    
  paddr    integral         32    'hc    
  pwdata   integral         32    'h47   
  pwrite   integral         1     'h1    
  prdata   integral         32    'h0    
  pslverr  integral         1     'h0    
  pready   integral         1     'h0    
-----------------------------------------
---------------------------------------------------------------------------------------------
Name                           Type             Size  Value                                  
---------------------------------------------------------------------------------------------
txn_h                          apb_transaction  -     @769                                   
  name                         string           6     DRIVER                                 
  psel                         integral         1     'h0                                    
  penable                      integral         1     'h0                                    
  paddr                        integral         32    'hc                                    
  pwdata                       integral         32    'h47                                   
  pwrite                       integral         1     'h1                                    
  prdata                       integral         32    'h0                                    
  pslverr                      integral         1     'h0                                    
  pready                       integral         1     'h0                                    
  begin_time                   time             64    37                                     
  depth                        int              32    'd2                                    
  parent sequence (name)       string           6     seq_4h                                 
  parent sequence (full name)  string           39    uvm_test_top.env_h.agnt_h.sequ_h.seq_4h
  sequencer                    string           32    uvm_test_top.env_h.agnt_h.sequ_h       
---------------------------------------------------------------------------------------------
UVM_INFO apb_subscriber.sv(55) @ 43: uvm_test_top.env_h.cov_h [COVERAGE CALCULATED] --------------------------------------------
Name       Type             Size  Value     
--------------------------------------------
txn_h      apb_transaction  -     @939      
  name     string           10    SUBSCRIBER
  psel     integral         1     'h0       
  penable  integral         1     'h0       
  paddr    integral         32    'hc       
  pwdata   integral         32    'h47      
  pwrite   integral         1     'h1       
  prdata   integral         32    'h0       
  pslverr  integral         1     'h0       
  pready   integral         1     'h0       
--------------------------------------------

UVM_INFO apb_subscriber.sv(56) @ 43: uvm_test_top.env_h.cov_h [COVERAGE CALCULATED IS = ] 92
--------------------------------------------
Name       Type             Size  Value     
--------------------------------------------
txn_h      apb_transaction  -     @939      
  name     string           10    SCOREBOARD
  psel     integral         1     'h0       
  penable  integral         1     'h0       
  paddr    integral         32    'hc       
  pwdata   integral         32    'h47      
  pwrite   integral         1     'h1       
  prdata   integral         32    'h0       
  pslverr  integral         1     'h0       
  pready   integral         1     'h0       
--------------------------------------------
---------------------------------------------------------------------------------------------
Name                           Type             Size  Value                                  
---------------------------------------------------------------------------------------------
txn_h                          apb_transaction  -     @769                                   
  name                         string           9     sequence3                              
  psel                         integral         1     'h0                                    
  penable                      integral         1     'h0                                    
  paddr                        integral         32    'he                                    
  pwdata                       integral         32    'h78                                   
  pwrite                       integral         1     'h1                                    
  prdata                       integral         32    'h0                                    
  pslverr                      integral         1     'h0                                    
  pready                       integral         1     'h0                                    
  begin_time                   time             64    43                                     
  depth                        int              32    'd2                                    
  parent sequence (name)       string           6     seq_4h                                 
  parent sequence (full name)  string           39    uvm_test_top.env_h.agnt_h.sequ_h.seq_4h
  sequencer                    string           32    uvm_test_top.env_h.agnt_h.sequ_h       
---------------------------------------------------------------------------------------------
UVM_INFO apb_property.sv(58) @ 43: reporter [ASSERTION PASSED for Handshake penable pready] 
UVM_INFO apb_property.sv(34) @ 43: reporter [ASSERTION PASSED setup_access] 
UVM_INFO apb_property.sv(46) @ 45: reporter [ASSERTION PASSED access_idle] 
-----------------------------------------
Name       Type             Size  Value  
-----------------------------------------
txn_h      apb_transaction  -     @961   
  name     string           7     MONITOR
  psel     integral         1     'h0    
  penable  integral         1     'h0    
  paddr    integral         32    'he    
  pwdata   integral         32    'h78   
  pwrite   integral         1     'h1    
  prdata   integral         32    'h0    
  pslverr  integral         1     'h0    
  pready   integral         1     'h0    
-----------------------------------------
---------------------------------------------------------------------------------------------
Name                           Type             Size  Value                                  
---------------------------------------------------------------------------------------------
txn_h                          apb_transaction  -     @769                                   
  name                         string           6     DRIVER                                 
  psel                         integral         1     'h0                                    
  penable                      integral         1     'h0                                    
  paddr                        integral         32    'he                                    
  pwdata                       integral         32    'h78                                   
  pwrite                       integral         1     'h1                                    
  prdata                       integral         32    'h0                                    
  pslverr                      integral         1     'h0                                    
  pready                       integral         1     'h0                                    
  begin_time                   time             64    43                                     
  depth                        int              32    'd2                                    
  parent sequence (name)       string           6     seq_4h                                 
  parent sequence (full name)  string           39    uvm_test_top.env_h.agnt_h.sequ_h.seq_4h
  sequencer                    string           32    uvm_test_top.env_h.agnt_h.sequ_h       
---------------------------------------------------------------------------------------------
UVM_INFO apb_subscriber.sv(55) @ 49: uvm_test_top.env_h.cov_h [COVERAGE CALCULATED] --------------------------------------------
Name       Type             Size  Value     
--------------------------------------------
txn_h      apb_transaction  -     @961      
  name     string           10    SUBSCRIBER
  psel     integral         1     'h0       
  penable  integral         1     'h0       
  paddr    integral         32    'he       
  pwdata   integral         32    'h78      
  pwrite   integral         1     'h1       
  prdata   integral         32    'h0       
  pslverr  integral         1     'h0       
  pready   integral         1     'h0       
--------------------------------------------

UVM_INFO apb_subscriber.sv(56) @ 49: uvm_test_top.env_h.cov_h [COVERAGE CALCULATED IS = ] 92
--------------------------------------------
Name       Type             Size  Value     
--------------------------------------------
txn_h      apb_transaction  -     @961      
  name     string           10    SCOREBOARD
  psel     integral         1     'h0       
  penable  integral         1     'h0       
  paddr    integral         32    'he       
  pwdata   integral         32    'h78      
  pwrite   integral         1     'h1       
  prdata   integral         32    'h0       
  pslverr  integral         1     'h0       
  pready   integral         1     'h0       
--------------------------------------------
---------------------------------------------------------------------------------------------
Name                           Type             Size  Value                                  
---------------------------------------------------------------------------------------------
txn_h                          apb_transaction  -     @769                                   
  name                         string           9     sequence3                              
  psel                         integral         1     'h0                                    
  penable                      integral         1     'h0                                    
  paddr                        integral         32    'h5                                    
  pwdata                       integral         32    'hea                                   
  pwrite                       integral         1     'h1                                    
  prdata                       integral         32    'h0                                    
  pslverr                      integral         1     'h0                                    
  pready                       integral         1     'h0                                    
  begin_time                   time             64    49                                     
  depth                        int              32    'd2                                    
  parent sequence (name)       string           6     seq_4h                                 
  parent sequence (full name)  string           39    uvm_test_top.env_h.agnt_h.sequ_h.seq_4h
  sequencer                    string           32    uvm_test_top.env_h.agnt_h.sequ_h       
---------------------------------------------------------------------------------------------
UVM_INFO apb_property.sv(58) @ 49: reporter [ASSERTION PASSED for Handshake penable pready] 
UVM_INFO apb_property.sv(34) @ 49: reporter [ASSERTION PASSED setup_access] 
UVM_INFO apb_property.sv(46) @ 51: reporter [ASSERTION PASSED access_idle] 
-----------------------------------------
Name       Type             Size  Value  
-----------------------------------------
txn_h      apb_transaction  -     @983   
  name     string           7     MONITOR
  psel     integral         1     'h0    
  penable  integral         1     'h0    
  paddr    integral         32    'h5    
  pwdata   integral         32    'hea   
  pwrite   integral         1     'h1    
  prdata   integral         32    'h0    
  pslverr  integral         1     'h0    
  pready   integral         1     'h0    
-----------------------------------------
---------------------------------------------------------------------------------------------
Name                           Type             Size  Value                                  
---------------------------------------------------------------------------------------------
txn_h                          apb_transaction  -     @769                                   
  name                         string           6     DRIVER                                 
  psel                         integral         1     'h0                                    
  penable                      integral         1     'h0                                    
  paddr                        integral         32    'h5                                    
  pwdata                       integral         32    'hea                                   
  pwrite                       integral         1     'h1                                    
  prdata                       integral         32    'h0                                    
  pslverr                      integral         1     'h0                                    
  pready                       integral         1     'h0                                    
  begin_time                   time             64    49                                     
  depth                        int              32    'd2                                    
  parent sequence (name)       string           6     seq_4h                                 
  parent sequence (full name)  string           39    uvm_test_top.env_h.agnt_h.sequ_h.seq_4h
  sequencer                    string           32    uvm_test_top.env_h.agnt_h.sequ_h       
---------------------------------------------------------------------------------------------
UVM_INFO apb_subscriber.sv(55) @ 55: uvm_test_top.env_h.cov_h [COVERAGE CALCULATED] --------------------------------------------
Name       Type             Size  Value     
--------------------------------------------
txn_h      apb_transaction  -     @983      
  name     string           10    SUBSCRIBER
  psel     integral         1     'h0       
  penable  integral         1     'h0       
  paddr    integral         32    'h5       
  pwdata   integral         32    'hea      
  pwrite   integral         1     'h1       
  prdata   integral         32    'h0       
  pslverr  integral         1     'h0       
  pready   integral         1     'h0       
--------------------------------------------

UVM_INFO apb_subscriber.sv(56) @ 55: uvm_test_top.env_h.cov_h [COVERAGE CALCULATED IS = ] 92
--------------------------------------------
Name       Type             Size  Value     
--------------------------------------------
txn_h      apb_transaction  -     @983      
  name     string           10    SCOREBOARD
  psel     integral         1     'h0       
  penable  integral         1     'h0       
  paddr    integral         32    'h5       
  pwdata   integral         32    'hea      
  pwrite   integral         1     'h1       
  prdata   integral         32    'h0       
  pslverr  integral         1     'h0       
  pready   integral         1     'h0       
--------------------------------------------
---------------------------------------------------------------------------------------------
Name                           Type             Size  Value                                  
---------------------------------------------------------------------------------------------
txn_h                          apb_transaction  -     @769                                   
  name                         string           9     sequence3                              
  psel                         integral         1     'h0                                    
  penable                      integral         1     'h0                                    
  paddr                        integral         32    'h0                                    
  pwdata                       integral         32    'h5f                                   
  pwrite                       integral         1     'h1                                    
  prdata                       integral         32    'h0                                    
  pslverr                      integral         1     'h0                                    
  pready                       integral         1     'h0                                    
  begin_time                   time             64    55                                     
  depth                        int              32    'd2                                    
  parent sequence (name)       string           6     seq_4h                                 
  parent sequence (full name)  string           39    uvm_test_top.env_h.agnt_h.sequ_h.seq_4h
  sequencer                    string           32    uvm_test_top.env_h.agnt_h.sequ_h       
---------------------------------------------------------------------------------------------
UVM_INFO apb_property.sv(58) @ 55: reporter [ASSERTION PASSED for Handshake penable pready] 
UVM_INFO apb_property.sv(34) @ 55: reporter [ASSERTION PASSED setup_access] 
UVM_INFO apb_property.sv(46) @ 57: reporter [ASSERTION PASSED access_idle] 
-----------------------------------------
Name       Type             Size  Value  
-----------------------------------------
txn_h      apb_transaction  -     @1005  
  name     string           7     MONITOR
  psel     integral         1     'h0    
  penable  integral         1     'h0    
  paddr    integral         32    'h0    
  pwdata   integral         32    'h5f   
  pwrite   integral         1     'h1    
  prdata   integral         32    'h0    
  pslverr  integral         1     'h0    
  pready   integral         1     'h0    
-----------------------------------------
---------------------------------------------------------------------------------------------
Name                           Type             Size  Value                                  
---------------------------------------------------------------------------------------------
txn_h                          apb_transaction  -     @769                                   
  name                         string           6     DRIVER                                 
  psel                         integral         1     'h0                                    
  penable                      integral         1     'h0                                    
  paddr                        integral         32    'h0                                    
  pwdata                       integral         32    'h5f                                   
  pwrite                       integral         1     'h1                                    
  prdata                       integral         32    'h0                                    
  pslverr                      integral         1     'h0                                    
  pready                       integral         1     'h0                                    
  begin_time                   time             64    55                                     
  depth                        int              32    'd2                                    
  parent sequence (name)       string           6     seq_4h                                 
  parent sequence (full name)  string           39    uvm_test_top.env_h.agnt_h.sequ_h.seq_4h
  sequencer                    string           32    uvm_test_top.env_h.agnt_h.sequ_h       
---------------------------------------------------------------------------------------------
UVM_INFO apb_subscriber.sv(55) @ 61: uvm_test_top.env_h.cov_h [COVERAGE CALCULATED] --------------------------------------------
Name       Type             Size  Value     
--------------------------------------------
txn_h      apb_transaction  -     @1005     
  name     string           10    SUBSCRIBER
  psel     integral         1     'h0       
  penable  integral         1     'h0       
  paddr    integral         32    'h0       
  pwdata   integral         32    'h5f      
  pwrite   integral         1     'h1       
  prdata   integral         32    'h0       
  pslverr  integral         1     'h0       
  pready   integral         1     'h0       
--------------------------------------------

UVM_INFO apb_subscriber.sv(56) @ 61: uvm_test_top.env_h.cov_h [COVERAGE CALCULATED IS = ] 92
--------------------------------------------
Name       Type             Size  Value     
--------------------------------------------
txn_h      apb_transaction  -     @1005     
  name     string           10    SCOREBOARD
  psel     integral         1     'h0       
  penable  integral         1     'h0       
  paddr    integral         32    'h0       
  pwdata   integral         32    'h5f      
  pwrite   integral         1     'h1       
  prdata   integral         32    'h0       
  pslverr  integral         1     'h0       
  pready   integral         1     'h0       
--------------------------------------------
---------------------------------------------------------------------------------------------
Name                           Type             Size  Value                                  
---------------------------------------------------------------------------------------------
txn_h                          apb_transaction  -     @769                                   
  name                         string           9     sequence3                              
  psel                         integral         1     'h0                                    
  penable                      integral         1     'h0                                    
  paddr                        integral         32    'ha                                    
  pwdata                       integral         32    'hd9                                   
  pwrite                       integral         1     'h1                                    
  prdata                       integral         32    'h0                                    
  pslverr                      integral         1     'h0                                    
  pready                       integral         1     'h0                                    
  begin_time                   time             64    61                                     
  depth                        int              32    'd2                                    
  parent sequence (name)       string           6     seq_4h                                 
  parent sequence (full name)  string           39    uvm_test_top.env_h.agnt_h.sequ_h.seq_4h
  sequencer                    string           32    uvm_test_top.env_h.agnt_h.sequ_h       
---------------------------------------------------------------------------------------------
UVM_INFO apb_property.sv(58) @ 61: reporter [ASSERTION PASSED for Handshake penable pready] 
UVM_INFO apb_property.sv(34) @ 61: reporter [ASSERTION PASSED setup_access] 
UVM_INFO apb_property.sv(46) @ 63: reporter [ASSERTION PASSED access_idle] 
-----------------------------------------
Name       Type             Size  Value  
-----------------------------------------
txn_h      apb_transaction  -     @1027  
  name     string           7     MONITOR
  psel     integral         1     'h0    
  penable  integral         1     'h0    
  paddr    integral         32    'ha    
  pwdata   integral         32    'hd9   
  pwrite   integral         1     'h1    
  prdata   integral         32    'h0    
  pslverr  integral         1     'h0    
  pready   integral         1     'h0    
-----------------------------------------
---------------------------------------------------------------------------------------------
Name                           Type             Size  Value                                  
---------------------------------------------------------------------------------------------
txn_h                          apb_transaction  -     @769                                   
  name                         string           6     DRIVER                                 
  psel                         integral         1     'h0                                    
  penable                      integral         1     'h0                                    
  paddr                        integral         32    'ha                                    
  pwdata                       integral         32    'hd9                                   
  pwrite                       integral         1     'h1                                    
  prdata                       integral         32    'h0                                    
  pslverr                      integral         1     'h0                                    
  pready                       integral         1     'h0                                    
  begin_time                   time             64    61                                     
  depth                        int              32    'd2                                    
  parent sequence (name)       string           6     seq_4h                                 
  parent sequence (full name)  string           39    uvm_test_top.env_h.agnt_h.sequ_h.seq_4h
  sequencer                    string           32    uvm_test_top.env_h.agnt_h.sequ_h       
---------------------------------------------------------------------------------------------
UVM_INFO apb_subscriber.sv(55) @ 67: uvm_test_top.env_h.cov_h [COVERAGE CALCULATED] --------------------------------------------
Name       Type             Size  Value     
--------------------------------------------
txn_h      apb_transaction  -     @1027     
  name     string           10    SUBSCRIBER
  psel     integral         1     'h0       
  penable  integral         1     'h0       
  paddr    integral         32    'ha       
  pwdata   integral         32    'hd9      
  pwrite   integral         1     'h1       
  prdata   integral         32    'h0       
  pslverr  integral         1     'h0       
  pready   integral         1     'h0       
--------------------------------------------

UVM_INFO apb_subscriber.sv(56) @ 67: uvm_test_top.env_h.cov_h [COVERAGE CALCULATED IS = ] 92
--------------------------------------------
Name       Type             Size  Value     
--------------------------------------------
txn_h      apb_transaction  -     @1027     
  name     string           10    SCOREBOARD
  psel     integral         1     'h0       
  penable  integral         1     'h0       
  paddr    integral         32    'ha       
  pwdata   integral         32    'hd9      
  pwrite   integral         1     'h1       
  prdata   integral         32    'h0       
  pslverr  integral         1     'h0       
  pready   integral         1     'h0       
--------------------------------------------
---------------------------------------------------------------------------------------------
Name                           Type             Size  Value                                  
---------------------------------------------------------------------------------------------
txn_h                          apb_transaction  -     @769                                   
  name                         string           9     sequence3                              
  psel                         integral         1     'h0                                    
  penable                      integral         1     'h0                                    
  paddr                        integral         32    'hd                                    
  pwdata                       integral         32    'hb7                                   
  pwrite                       integral         1     'h1                                    
  prdata                       integral         32    'h0                                    
  pslverr                      integral         1     'h0                                    
  pready                       integral         1     'h0                                    
  begin_time                   time             64    67                                     
  depth                        int              32    'd2                                    
  parent sequence (name)       string           6     seq_4h                                 
  parent sequence (full name)  string           39    uvm_test_top.env_h.agnt_h.sequ_h.seq_4h
  sequencer                    string           32    uvm_test_top.env_h.agnt_h.sequ_h       
---------------------------------------------------------------------------------------------
UVM_INFO apb_property.sv(58) @ 67: reporter [ASSERTION PASSED for Handshake penable pready] 
UVM_INFO apb_property.sv(34) @ 67: reporter [ASSERTION PASSED setup_access] 
UVM_INFO apb_property.sv(46) @ 69: reporter [ASSERTION PASSED access_idle] 
-----------------------------------------
Name       Type             Size  Value  
-----------------------------------------
txn_h      apb_transaction  -     @1049  
  name     string           7     MONITOR
  psel     integral         1     'h0    
  penable  integral         1     'h0    
  paddr    integral         32    'hd    
  pwdata   integral         32    'hb7   
  pwrite   integral         1     'h1    
  prdata   integral         32    'h0    
  pslverr  integral         1     'h0    
  pready   integral         1     'h0    
-----------------------------------------
---------------------------------------------------------------------------------------------
Name                           Type             Size  Value                                  
---------------------------------------------------------------------------------------------
txn_h                          apb_transaction  -     @769                                   
  name                         string           6     DRIVER                                 
  psel                         integral         1     'h0                                    
  penable                      integral         1     'h0                                    
  paddr                        integral         32    'hd                                    
  pwdata                       integral         32    'hb7                                   
  pwrite                       integral         1     'h1                                    
  prdata                       integral         32    'h0                                    
  pslverr                      integral         1     'h0                                    
  pready                       integral         1     'h0                                    
  begin_time                   time             64    67                                     
  depth                        int              32    'd2                                    
  parent sequence (name)       string           6     seq_4h                                 
  parent sequence (full name)  string           39    uvm_test_top.env_h.agnt_h.sequ_h.seq_4h
  sequencer                    string           32    uvm_test_top.env_h.agnt_h.sequ_h       
---------------------------------------------------------------------------------------------
UVM_INFO apb_subscriber.sv(55) @ 73: uvm_test_top.env_h.cov_h [COVERAGE CALCULATED] --------------------------------------------
Name       Type             Size  Value     
--------------------------------------------
txn_h      apb_transaction  -     @1049     
  name     string           10    SUBSCRIBER
  psel     integral         1     'h0       
  penable  integral         1     'h0       
  paddr    integral         32    'hd       
  pwdata   integral         32    'hb7      
  pwrite   integral         1     'h1       
  prdata   integral         32    'h0       
  pslverr  integral         1     'h0       
  pready   integral         1     'h0       
--------------------------------------------

UVM_INFO apb_subscriber.sv(56) @ 73: uvm_test_top.env_h.cov_h [COVERAGE CALCULATED IS = ] 92
--------------------------------------------
Name       Type             Size  Value     
--------------------------------------------
txn_h      apb_transaction  -     @1049     
  name     string           10    SCOREBOARD
  psel     integral         1     'h0       
  penable  integral         1     'h0       
  paddr    integral         32    'hd       
  pwdata   integral         32    'hb7      
  pwrite   integral         1     'h1       
  prdata   integral         32    'h0       
  pslverr  integral         1     'h0       
  pready   integral         1     'h0       
--------------------------------------------
---------------------------------------------------------------------------------------------
Name                           Type             Size  Value                                  
---------------------------------------------------------------------------------------------
txn_h                          apb_transaction  -     @769                                   
  name                         string           9     sequence3                              
  psel                         integral         1     'h0                                    
  penable                      integral         1     'h0                                    
  paddr                        integral         32    'hf                                    
  pwdata                       integral         32    'h20                                   
  pwrite                       integral         1     'h1                                    
  prdata                       integral         32    'h0                                    
  pslverr                      integral         1     'h0                                    
  pready                       integral         1     'h0                                    
  begin_time                   time             64    73                                     
  depth                        int              32    'd2                                    
  parent sequence (name)       string           6     seq_4h                                 
  parent sequence (full name)  string           39    uvm_test_top.env_h.agnt_h.sequ_h.seq_4h
  sequencer                    string           32    uvm_test_top.env_h.agnt_h.sequ_h       
---------------------------------------------------------------------------------------------
UVM_INFO apb_property.sv(58) @ 73: reporter [ASSERTION PASSED for Handshake penable pready] 
UVM_INFO apb_property.sv(34) @ 73: reporter [ASSERTION PASSED setup_access] 
UVM_INFO apb_property.sv(46) @ 75: reporter [ASSERTION PASSED access_idle] 
-----------------------------------------
Name       Type             Size  Value  
-----------------------------------------
txn_h      apb_transaction  -     @1071  
  name     string           7     MONITOR
  psel     integral         1     'h0    
  penable  integral         1     'h0    
  paddr    integral         32    'hf    
  pwdata   integral         32    'h20   
  pwrite   integral         1     'h1    
  prdata   integral         32    'h0    
  pslverr  integral         1     'h0    
  pready   integral         1     'h0    
-----------------------------------------
---------------------------------------------------------------------------------------------
Name                           Type             Size  Value                                  
---------------------------------------------------------------------------------------------
txn_h                          apb_transaction  -     @769                                   
  name                         string           6     DRIVER                                 
  psel                         integral         1     'h0                                    
  penable                      integral         1     'h0                                    
  paddr                        integral         32    'hf                                    
  pwdata                       integral         32    'h20                                   
  pwrite                       integral         1     'h1                                    
  prdata                       integral         32    'h0                                    
  pslverr                      integral         1     'h0                                    
  pready                       integral         1     'h0                                    
  begin_time                   time             64    73                                     
  depth                        int              32    'd2                                    
  parent sequence (name)       string           6     seq_4h                                 
  parent sequence (full name)  string           39    uvm_test_top.env_h.agnt_h.sequ_h.seq_4h
  sequencer                    string           32    uvm_test_top.env_h.agnt_h.sequ_h       
---------------------------------------------------------------------------------------------
UVM_INFO apb_subscriber.sv(55) @ 79: uvm_test_top.env_h.cov_h [COVERAGE CALCULATED] --------------------------------------------
Name       Type             Size  Value     
--------------------------------------------
txn_h      apb_transaction  -     @1071     
  name     string           10    SUBSCRIBER
  psel     integral         1     'h0       
  penable  integral         1     'h0       
  paddr    integral         32    'hf       
  pwdata   integral         32    'h20      
  pwrite   integral         1     'h1       
  prdata   integral         32    'h0       
  pslverr  integral         1     'h0       
  pready   integral         1     'h0       
--------------------------------------------

UVM_INFO apb_subscriber.sv(56) @ 79: uvm_test_top.env_h.cov_h [COVERAGE CALCULATED IS = ] 92
--------------------------------------------
Name       Type             Size  Value     
--------------------------------------------
txn_h      apb_transaction  -     @1071     
  name     string           10    SCOREBOARD
  psel     integral         1     'h0       
  penable  integral         1     'h0       
  paddr    integral         32    'hf       
  pwdata   integral         32    'h20      
  pwrite   integral         1     'h1       
  prdata   integral         32    'h0       
  pslverr  integral         1     'h0       
  pready   integral         1     'h0       
--------------------------------------------
---------------------------------------------------------------------------------------------
Name                           Type             Size  Value                                  
---------------------------------------------------------------------------------------------
txn_h                          apb_transaction  -     @769                                   
  name                         string           9     sequence3                              
  psel                         integral         1     'h0                                    
  penable                      integral         1     'h0                                    
  paddr                        integral         32    'h9                                    
  pwdata                       integral         32    'h96                                   
  pwrite                       integral         1     'h1                                    
  prdata                       integral         32    'h0                                    
  pslverr                      integral         1     'h0                                    
  pready                       integral         1     'h0                                    
  begin_time                   time             64    79                                     
  depth                        int              32    'd2                                    
  parent sequence (name)       string           6     seq_4h                                 
  parent sequence (full name)  string           39    uvm_test_top.env_h.agnt_h.sequ_h.seq_4h
  sequencer                    string           32    uvm_test_top.env_h.agnt_h.sequ_h       
---------------------------------------------------------------------------------------------
UVM_INFO apb_property.sv(58) @ 79: reporter [ASSERTION PASSED for Handshake penable pready] 
UVM_INFO apb_property.sv(34) @ 79: reporter [ASSERTION PASSED setup_access] 
UVM_INFO apb_property.sv(46) @ 81: reporter [ASSERTION PASSED access_idle] 
-----------------------------------------
Name       Type             Size  Value  
-----------------------------------------
txn_h      apb_transaction  -     @1093  
  name     string           7     MONITOR
  psel     integral         1     'h0    
  penable  integral         1     'h0    
  paddr    integral         32    'h9    
  pwdata   integral         32    'h96   
  pwrite   integral         1     'h1    
  prdata   integral         32    'h0    
  pslverr  integral         1     'h0    
  pready   integral         1     'h0    
-----------------------------------------
---------------------------------------------------------------------------------------------
Name                           Type             Size  Value                                  
---------------------------------------------------------------------------------------------
txn_h                          apb_transaction  -     @769                                   
  name                         string           6     DRIVER                                 
  psel                         integral         1     'h0                                    
  penable                      integral         1     'h0                                    
  paddr                        integral         32    'h9                                    
  pwdata                       integral         32    'h96                                   
  pwrite                       integral         1     'h1                                    
  prdata                       integral         32    'h0                                    
  pslverr                      integral         1     'h0                                    
  pready                       integral         1     'h0                                    
  begin_time                   time             64    79                                     
  depth                        int              32    'd2                                    
  parent sequence (name)       string           6     seq_4h                                 
  parent sequence (full name)  string           39    uvm_test_top.env_h.agnt_h.sequ_h.seq_4h
  sequencer                    string           32    uvm_test_top.env_h.agnt_h.sequ_h       
---------------------------------------------------------------------------------------------
UVM_INFO apb_subscriber.sv(55) @ 85: uvm_test_top.env_h.cov_h [COVERAGE CALCULATED] --------------------------------------------
Name       Type             Size  Value     
--------------------------------------------
txn_h      apb_transaction  -     @1093     
  name     string           10    SUBSCRIBER
  psel     integral         1     'h0       
  penable  integral         1     'h0       
  paddr    integral         32    'h9       
  pwdata   integral         32    'h96      
  pwrite   integral         1     'h1       
  prdata   integral         32    'h0       
  pslverr  integral         1     'h0       
  pready   integral         1     'h0       
--------------------------------------------

UVM_INFO apb_subscriber.sv(56) @ 85: uvm_test_top.env_h.cov_h [COVERAGE CALCULATED IS = ] 92
--------------------------------------------
Name       Type             Size  Value     
--------------------------------------------
txn_h      apb_transaction  -     @1093     
  name     string           10    SCOREBOARD
  psel     integral         1     'h0       
  penable  integral         1     'h0       
  paddr    integral         32    'h9       
  pwdata   integral         32    'h96      
  pwrite   integral         1     'h1       
  prdata   integral         32    'h0       
  pslverr  integral         1     'h0       
  pready   integral         1     'h0       
--------------------------------------------
---------------------------------------------------------------------------------------------
Name                           Type             Size  Value                                  
---------------------------------------------------------------------------------------------
txn_h                          apb_transaction  -     @769                                   
  name                         string           9     sequence3                              
  psel                         integral         1     'h0                                    
  penable                      integral         1     'h0                                    
  paddr                        integral         32    'h4                                    
  pwdata                       integral         32    'h63                                   
  pwrite                       integral         1     'h1                                    
  prdata                       integral         32    'h0                                    
  pslverr                      integral         1     'h0                                    
  pready                       integral         1     'h0                                    
  begin_time                   time             64    85                                     
  depth                        int              32    'd2                                    
  parent sequence (name)       string           6     seq_4h                                 
  parent sequence (full name)  string           39    uvm_test_top.env_h.agnt_h.sequ_h.seq_4h
  sequencer                    string           32    uvm_test_top.env_h.agnt_h.sequ_h       
---------------------------------------------------------------------------------------------
UVM_INFO apb_property.sv(58) @ 85: reporter [ASSERTION PASSED for Handshake penable pready] 
UVM_INFO apb_property.sv(34) @ 85: reporter [ASSERTION PASSED setup_access] 
UVM_INFO apb_property.sv(46) @ 87: reporter [ASSERTION PASSED access_idle] 
-----------------------------------------
Name       Type             Size  Value  
-----------------------------------------
txn_h      apb_transaction  -     @1115  
  name     string           7     MONITOR
  psel     integral         1     'h0    
  penable  integral         1     'h0    
  paddr    integral         32    'h4    
  pwdata   integral         32    'h63   
  pwrite   integral         1     'h1    
  prdata   integral         32    'h0    
  pslverr  integral         1     'h0    
  pready   integral         1     'h0    
-----------------------------------------
---------------------------------------------------------------------------------------------
Name                           Type             Size  Value                                  
---------------------------------------------------------------------------------------------
txn_h                          apb_transaction  -     @769                                   
  name                         string           6     DRIVER                                 
  psel                         integral         1     'h0                                    
  penable                      integral         1     'h0                                    
  paddr                        integral         32    'h4                                    
  pwdata                       integral         32    'h63                                   
  pwrite                       integral         1     'h1                                    
  prdata                       integral         32    'h0                                    
  pslverr                      integral         1     'h0                                    
  pready                       integral         1     'h0                                    
  begin_time                   time             64    85                                     
  depth                        int              32    'd2                                    
  parent sequence (name)       string           6     seq_4h                                 
  parent sequence (full name)  string           39    uvm_test_top.env_h.agnt_h.sequ_h.seq_4h
  sequencer                    string           32    uvm_test_top.env_h.agnt_h.sequ_h       
---------------------------------------------------------------------------------------------
UVM_INFO apb_subscriber.sv(55) @ 91: uvm_test_top.env_h.cov_h [COVERAGE CALCULATED] --------------------------------------------
Name       Type             Size  Value     
--------------------------------------------
txn_h      apb_transaction  -     @1115     
  name     string           10    SUBSCRIBER
  psel     integral         1     'h0       
  penable  integral         1     'h0       
  paddr    integral         32    'h4       
  pwdata   integral         32    'h63      
  pwrite   integral         1     'h1       
  prdata   integral         32    'h0       
  pslverr  integral         1     'h0       
  pready   integral         1     'h0       
--------------------------------------------

UVM_INFO apb_subscriber.sv(56) @ 91: uvm_test_top.env_h.cov_h [COVERAGE CALCULATED IS = ] 92
--------------------------------------------
Name       Type             Size  Value     
--------------------------------------------
txn_h      apb_transaction  -     @1115     
  name     string           10    SCOREBOARD
  psel     integral         1     'h0       
  penable  integral         1     'h0       
  paddr    integral         32    'h4       
  pwdata   integral         32    'h63      
  pwrite   integral         1     'h1       
  prdata   integral         32    'h0       
  pslverr  integral         1     'h0       
  pready   integral         1     'h0       
--------------------------------------------
---------------------------------------------------------------------------------------------
Name                           Type             Size  Value                                  
---------------------------------------------------------------------------------------------
txn_h                          apb_transaction  -     @769                                   
  name                         string           9     sequence3                              
  psel                         integral         1     'h0                                    
  penable                      integral         1     'h0                                    
  paddr                        integral         32    'h2                                    
  pwdata                       integral         32    'h56                                   
  pwrite                       integral         1     'h1                                    
  prdata                       integral         32    'h0                                    
  pslverr                      integral         1     'h0                                    
  pready                       integral         1     'h0                                    
  begin_time                   time             64    91                                     
  depth                        int              32    'd2                                    
  parent sequence (name)       string           6     seq_4h                                 
  parent sequence (full name)  string           39    uvm_test_top.env_h.agnt_h.sequ_h.seq_4h
  sequencer                    string           32    uvm_test_top.env_h.agnt_h.sequ_h       
---------------------------------------------------------------------------------------------
UVM_INFO apb_property.sv(58) @ 91: reporter [ASSERTION PASSED for Handshake penable pready] 
UVM_INFO apb_property.sv(34) @ 91: reporter [ASSERTION PASSED setup_access] 
UVM_INFO apb_property.sv(46) @ 93: reporter [ASSERTION PASSED access_idle] 
-----------------------------------------
Name       Type             Size  Value  
-----------------------------------------
txn_h      apb_transaction  -     @1137  
  name     string           7     MONITOR
  psel     integral         1     'h0    
  penable  integral         1     'h0    
  paddr    integral         32    'h2    
  pwdata   integral         32    'h56   
  pwrite   integral         1     'h1    
  prdata   integral         32    'h0    
  pslverr  integral         1     'h0    
  pready   integral         1     'h0    
-----------------------------------------
---------------------------------------------------------------------------------------------
Name                           Type             Size  Value                                  
---------------------------------------------------------------------------------------------
txn_h                          apb_transaction  -     @769                                   
  name                         string           6     DRIVER                                 
  psel                         integral         1     'h0                                    
  penable                      integral         1     'h0                                    
  paddr                        integral         32    'h2                                    
  pwdata                       integral         32    'h56                                   
  pwrite                       integral         1     'h1                                    
  prdata                       integral         32    'h0                                    
  pslverr                      integral         1     'h0                                    
  pready                       integral         1     'h0                                    
  begin_time                   time             64    91                                     
  depth                        int              32    'd2                                    
  parent sequence (name)       string           6     seq_4h                                 
  parent sequence (full name)  string           39    uvm_test_top.env_h.agnt_h.sequ_h.seq_4h
  sequencer                    string           32    uvm_test_top.env_h.agnt_h.sequ_h       
---------------------------------------------------------------------------------------------
UVM_INFO apb_subscriber.sv(55) @ 97: uvm_test_top.env_h.cov_h [COVERAGE CALCULATED] --------------------------------------------
Name       Type             Size  Value     
--------------------------------------------
txn_h      apb_transaction  -     @1137     
  name     string           10    SUBSCRIBER
  psel     integral         1     'h0       
  penable  integral         1     'h0       
  paddr    integral         32    'h2       
  pwdata   integral         32    'h56      
  pwrite   integral         1     'h1       
  prdata   integral         32    'h0       
  pslverr  integral         1     'h0       
  pready   integral         1     'h0       
--------------------------------------------

UVM_INFO apb_subscriber.sv(56) @ 97: uvm_test_top.env_h.cov_h [COVERAGE CALCULATED IS = ] 92
--------------------------------------------
Name       Type             Size  Value     
--------------------------------------------
txn_h      apb_transaction  -     @1137     
  name     string           10    SCOREBOARD
  psel     integral         1     'h0       
  penable  integral         1     'h0       
  paddr    integral         32    'h2       
  pwdata   integral         32    'h56      
  pwrite   integral         1     'h1       
  prdata   integral         32    'h0       
  pslverr  integral         1     'h0       
  pready   integral         1     'h0       
--------------------------------------------
---------------------------------------------------------------------------------------------
Name                           Type             Size  Value                                  
---------------------------------------------------------------------------------------------
sequence4                      apb_transaction  -     @1145                                  
  name                         string           10    SEQUENCE_4                             
  psel                         integral         1     'h0                                    
  penable                      integral         1     'h0                                    
  paddr                        integral         32    'h7                                    
  pwdata                       integral         32    'h21                                   
  pwrite                       integral         1     'h0                                    
  prdata                       integral         32    'h0                                    
  pslverr                      integral         1     'h0                                    
  pready                       integral         1     'h0                                    
  begin_time                   time             64    97                                     
  depth                        int              32    'd2                                    
  parent sequence (name)       string           6     seq_4h                                 
  parent sequence (full name)  string           39    uvm_test_top.env_h.agnt_h.sequ_h.seq_4h
  sequencer                    string           32    uvm_test_top.env_h.agnt_h.sequ_h       
